Circuit: * C:\Users\EosinY\Documents\KiCad\Proj\ElectronicLoad\Main_SMD_Controller\Controller.asc

WARNING: Less than two connections to node VOFS.  This node is used by V3.
Direct Newton iteration for .op point succeeded.
Semiconductor Device Operating Points:
                        --- Diodes ---
Name:    d:u1:4      d:u1:1
Model:    u1:di       u1:x
Id:      5.55e-25   -1.50e-07
Vd:      5.55e-16   -8.37e-01
Req:     1.00e-09    1.00e-04
CAP:     0.00e+00    0.00e+00

                        --- VDMOSFET Transistors ---
Name:        m:u1:2      m:u1:1
Model:        u1:p        u1:n
Id:         -3.45e-18   -1.50e-07
Vgs:         9.05e-01    9.05e-01
Vds:        -2.49e-06   -2.49e-06
Vth:         3.00e-01   -3.00e-01
Gm:          0.00e+00    1.24e-07
Gds:         0.00e+00    6.02e-02
Cgs:         0.00e+00    0.00e+00
Cgd:         0.00e+00    0.00e+00
Cbody:       0.00e+00    0.00e+00



Date: Wed Jun 25 01:10:54 2025
Total elapsed time: 0.028 seconds.

tnom = 27
temp = 27
method = trap
totiter = 9
traniter = 0
tranpoints = 0
accept = 0
rejected = 0
matrix size = 18
fillins = 3
solver = Normal
Matrix Compiler1: 942 bytes object code size
Matrix Compiler2: 1.56 KB object code size
